Freq.	V(vout)
1.00000000000000e+000	4.99999498427008e-001,-3.96672781545951e-005
1.01157945425990e+000	4.99999498390320e-001,-4.01266070884875e-005
1.02329299228075e+000	4.99999498352862e-001,-4.05912500578756e-005
1.03514216667934e+000	4.99999498314446e-001,-4.10612748753544e-005
1.04712854805090e+000	4.99999498275164e-001,-4.15367411849590e-005
1.05925372517729e+000	4.99999498234995e-001,-4.20177137931329e-005
1.07151930523761e+000	4.99999498193890e-001,-4.25042546834400e-005
1.08392691402120e+000	4.99999498151798e-001,-4.29964327950223e-005
1.09647819614319e+000	4.99999498108699e-001,-4.34943071557094e-005
1.10917481526240e+000	4.99999498064679e-001,-4.39979473188100e-005
1.12201845430196e+000	4.99999498019577e-001,-4.45074200491712e-005
1.13501081567232e+000	4.99999497973453e-001,-4.50227928847460e-005
1.14815362149688e+000	4.99999497926253e-001,-4.55441332573334e-005
1.16144861384034e+000	4.99999497877954e-001,-4.60715085016924e-005
1.17489755493953e+000	4.99999497828431e-001,-4.66049885291908e-005
1.18850222743702e+000	4.99999497777868e-001,-4.71446520543599e-005
1.20226443461741e+000	4.99999497726126e-001,-4.76905599588586e-005
1.21618600064637e+000	4.99999497673150e-001,-4.82427917163337e-005
1.23026877081238e+000	4.99999497618925e-001,-4.88014152039064e-005
1.24451461177139e+000	4.99999497563424e-001,-4.93665089163579e-005
1.25892541179417e+000	4.99999497506686e-001,-4.99381451005350e-005
1.27350308101666e+000	4.99999497448598e-001,-5.05164039761534e-005
1.28824955169314e+000	4.99999497389128e-001,-5.11013559822524e-005
1.30316677845230e+000	4.99999497328329e-001,-5.16930804391240e-005
1.31825673855641e+000	4.99999497266099e-001,-5.22916611177036e-005
1.33352143216333e+000	4.99999497202378e-001,-5.28971675981758e-005
1.34896288259166e+000	4.99999497137228e-001,-5.35096881431517e-005
1.36458313658893e+000	4.99999497070503e-001,-5.41293003983812e-005
1.38038426460289e+000	4.99999497002281e-001,-5.47560891671051e-005
1.39636836105594e+000	4.99999496932440e-001,-5.53901339864276e-005
1.41253754462276e+000	4.99999496861001e-001,-5.60315206846628e-005
1.42889395851111e+000	4.99999496787882e-001,-5.66803369515852e-005
1.44543977074593e+000	4.99999496713004e-001,-5.73366652442550e-005
1.46217717445672e+000	4.99999496636410e-001,-5.80005907920380e-005
1.47910838816821e+000	4.99999496558060e-001,-5.86722087135690e-005
1.49623565609444e+000	4.99999496477912e-001,-5.93515991594038e-005
1.51356124843621e+000	4.99999496395840e-001,-6.00388584100917e-005
1.53108746168203e+000	4.99999496311857e-001,-6.07340740190958e-005
1.54881661891249e+000	4.99999496225931e-001,-6.14373417002685e-005
1.56675107010815e+000	4.99999496138031e-001,-6.21487537937459e-005
1.58489319246112e+000	4.99999496048042e-001,-6.28684010546524e-005
1.60324539069005e+000	4.99999495955997e-001,-6.35963842119479e-005
1.62181009735893e+000	4.99999495861780e-001,-6.43327962174663e-005
1.64058977319954e+000	4.99999495765369e-001,-6.50777342491491e-005
1.65958690743757e+000	4.99999495666738e-001,-6.58312975035213e-005
1.67880401812257e+000	4.99999495565789e-001,-6.65935894292397e-005
1.69824365246175e+000	4.99999495462516e-001,-6.73647061939880e-005
1.71790838715759e+000	4.99999495356780e-001,-6.81447517969399e-005
1.73780082874938e+000	4.99999495248623e-001,-6.89338327532219e-005
1.75792361395870e+000	4.99999495137960e-001,-6.97320487817285e-005
1.77827941003893e+000	4.99999495024683e-001,-7.05395074739575e-005
1.79887091512879e+000	4.99999494908782e-001,-7.13563163144271e-005
1.81970085860999e+000	4.99999494790159e-001,-7.21825822507580e-005
1.84077200146896e+000	4.99999494668808e-001,-7.30184179252915e-005
1.86208713666287e+000	4.99999494544608e-001,-7.38639314755478e-005
1.88364908948981e+000	4.99999494417536e-001,-7.47192349866031e-005
1.90546071796325e+000	4.99999494287482e-001,-7.55844436177893e-005
1.92752491319094e+000	4.99999494154412e-001,-7.64596702886194e-005
1.94984459975805e+000	4.99999494018242e-001,-7.73450310230852e-005
1.97242273611486e+000	4.99999493878885e-001,-7.82406440768608e-005
1.99526231496889e+000	4.99999493736295e-001,-7.91466277323914e-005
2.01836636368157e+000	4.99999493590397e-001,-8.00631034232759e-005
2.04173794466954e+000	4.99999493441079e-001,-8.09901899770071e-005
2.06538015581054e+000	4.99999493288262e-001,-8.19280116247046e-005
2.08929613085405e+000	4.99999493131954e-001,-8.28766949087614e-005
2.11348903983666e+000	4.99999492971947e-001,-8.38363607057156e-005
2.13796208950224e+000	4.99999492808249e-001,-8.48071402301590e-005
2.16271852372703e+000	4.99999492640728e-001,-8.57891612847962e-005
2.18776162394956e+000	4.99999492469291e-001,-8.67825536065924e-005
2.21309470960565e+000	4.99999492293853e-001,-8.77874479958589e-005
2.23872113856835e+000	4.99999492114348e-001,-8.88039776659538e-005
2.26464430759307e+000	4.99999491930661e-001,-8.98322791491436e-005
2.29086765276778e+000	4.99999491742677e-001,-9.08724883176390e-005
2.31739464996849e+000	4.99999491550327e-001,-9.19247412898465e-005
2.34422881531993e+000	4.99999491353503e-001,-9.29891806659133e-005
2.37137370566167e+000	4.99999491152086e-001,-9.40659444439605e-005
2.39883291901950e+000	4.99999490945987e-001,-9.51551771410344e-005
2.42661009508243e+000	4.99999490735082e-001,-9.62570209302360e-005
2.45470891568504e+000	4.99999490519247e-001,-9.73716240975594e-005
2.48313310529558e+000	4.99999490298403e-001,-9.84991352880857e-005
2.51188643150959e+000	4.99999490072418e-001,-9.96397013051285e-005
2.54097270554932e+000	4.99999489841171e-001,-1.00793475123650e-004
2.57039578276888e+000	4.99999489604526e-001,-1.01960609248961e-004
2.60015956316529e+000	4.99999489362360e-001,-1.03141256181080e-004
2.63026799189540e+000	4.99999489114574e-001,-1.04335575540686e-004
2.66072505979882e+000	4.99999488861011e-001,-1.05543726096244e-004
2.69153480392693e+000	4.99999488601540e-001,-1.06765863564530e-004
2.72270130807793e+000	4.99999488336024e-001,-1.08002153954577e-004
2.75422870333818e+000	4.99999488064321e-001,-1.09252760266438e-004
2.78612116862979e+000	4.99999487786282e-001,-1.10517847397894e-004
2.81838293126447e+000	4.99999487501782e-001,-1.11797582610534e-004
2.85101826750393e+000	4.99999487210654e-001,-1.13092138660607e-004
2.88403150312662e+000	4.99999486912739e-001,-1.14401684939704e-004
2.91742701400118e+000	4.99999486607890e-001,-1.15726393270679e-004
2.95120922666640e+000	4.99999486295942e-001,-1.17066442815655e-004
2.98538261891798e+000	4.99999485976712e-001,-1.18422006332498e-004
3.01995172040204e+000	4.99999485650059e-001,-1.19793269294242e-004
3.05492111321553e+000	4.99999485315788e-001,-1.21180409484769e-004
3.09029543251361e+000	4.99999484973736e-001,-1.22583613454229e-004
3.12607936712398e+000	4.99999484623722e-001,-1.24003064552990e-004
3.16227766016840e+000	4.99999484265550e-001,-1.25438952504219e-004
3.19889510969142e+000	4.99999483899041e-001,-1.26891466101345e-004
3.23593656929630e+000	4.99999483523986e-001,-1.28360800782827e-004
3.27340694878840e+000	4.99999483140200e-001,-1.29847148443588e-004
3.31131121482593e+000	4.99999482747474e-001,-1.31350708119009e-004
3.34965439157830e+000	4.99999482345598e-001,-1.32871676463105e-004
3.38844156139205e+000	4.99999481934362e-001,-1.34410258877193e-004
3.42767786546453e+000	4.99999481513544e-001,-1.35966655769831e-004
3.46736850452534e+000	4.99999481082928e-001,-1.37541075906548e-004
3.50751873952571e+000	4.99999480642283e-001,-1.39133725779040e-004
3.54813389233578e+000	4.99999480191373e-001,-1.40744818514622e-004
3.58921934645008e+000	4.99999479729958e-001,-1.42374566576740e-004
3.63078054770104e+000	4.99999479257799e-001,-1.44023186456219e-004
3.67282300498087e+000	4.99999478774637e-001,-1.45690896479451e-004
3.71535229097175e+000	4.99999478280222e-001,-1.47377917503495e-004
3.75837404288447e+000	4.99999477774296e-001,-1.49084472945387e-004
3.80189396320564e+000	4.99999477256576e-001,-1.50810789922003e-004
3.84591782045357e+000	4.99999476726802e-001,-1.52557096837552e-004
3.89045144994284e+000	4.99999476184694e-001,-1.54323624302090e-004
3.93550075455781e+000	4.99999475629946e-001,-1.56110607826743e-004
3.98107170553500e+000	4.99999475062288e-001,-1.57918283635893e-004
4.02717034325462e+000	4.99999474481402e-001,-1.59746891363120e-004
4.07380277804116e+000	4.99999473886988e-001,-1.61596673416825e-004
4.12097519097334e+000	4.99999473278721e-001,-1.63467873458052e-004
4.16869383470339e+000	4.99999472656291e-001,-1.65360741984108e-004
4.21696503428586e+000	4.99999472019367e-001,-1.67275529922146e-004
4.26579518801596e+000	4.99999471367602e-001,-1.69212488884460e-004
4.31519076827769e+000	4.99999470700655e-001,-1.71171877197362e-004
4.36515832240170e+000	4.99999470018174e-001,-1.73153953939975e-004
4.41570447353316e+000	4.99999469319794e-001,-1.75158981865278e-004
4.46683592150967e+000	4.99999468605150e-001,-1.77187227434908e-004
4.51855944374926e+000	4.99999467873862e-001,-1.79238958855998e-004
4.57088189614879e+000	4.99999467125535e-001,-1.81314448337265e-004
4.62381021399265e+000	4.99999466359776e-001,-1.83413970348699e-004
4.67735141287203e+000	4.99999465576186e-001,-1.85537803878483e-004
4.73151258961485e+000	4.99999464774339e-001,-1.87686230249432e-004
4.78630092322643e+000	4.99999463953815e-001,-1.89859534266540e-004
4.84172367584104e+000	4.99999463114179e-001,-1.92058004032685e-004
4.89778819368451e+000	4.99999462254987e-001,-1.94281930986810e-004
4.95450190804795e+000	4.99999461375783e-001,-1.96531609276426e-004
5.01187233627277e+000	4.99999460476096e-001,-1.98807338239182e-004
5.06990708274709e+000	4.99999459555457e-001,-2.01109419111717e-004
5.12861383991370e+000	4.99999458613370e-001,-2.03438156179872e-004
5.18800038928966e+000	4.99999457649340e-001,-2.05793858373459e-004
5.24807460249778e+000	4.99999456662856e-001,-2.08176838863086e-004
5.30884444230994e+000	4.99999455653393e-001,-2.10587413547236e-004
5.37031796370258e+000	4.99999454620415e-001,-2.13025900205963e-004
5.43250331492439e+000	4.99999453563377e-001,-2.15492623650272e-004
5.49540873857630e+000	4.99999452481717e-001,-2.17987910435898e-004
5.55904257270409e+000	4.99999451374862e-001,-2.20512091349139e-004
5.62341325190355e+000	4.99999450242225e-001,-2.23065500562521e-004
5.68852930843847e+000	4.99999449083207e-001,-2.25648478121649e-004
5.75439937337163e+000	4.99999447897191e-001,-2.28261363550761e-004
5.82103217770877e+000	4.99999446683549e-001,-2.30904505446058e-004
5.88843655355595e+000	4.99999445441636e-001,-2.33578253083898e-004
5.95662143529017e+000	4.99999444170798e-001,-2.36282961796325e-004
6.02559586074364e+000	4.99999442870357e-001,-2.39018989687370e-004
6.09536897240176e+000	4.99999441539627e-001,-2.41786699012849e-004
6.16595001861489e+000	4.99999440177896e-001,-2.44586456672525e-004
6.23734835482426e+000	4.99999438784450e-001,-2.47418633814655e-004
6.30957344480200e+000	4.99999437358543e-001,-2.50283606440291e-004
6.38263486190556e+000	4.99999435899427e-001,-2.53181754120780e-004
6.45654229034662e+000	4.99999434406320e-001,-2.56113460270145e-004
6.53130552647479e+000	4.99999432878435e-001,-2.59079114083394e-004
6.60693448007603e+000	4.99999431314962e-001,-2.62079108700655e-004
6.68343917568622e+000	4.99999429715071e-001,-2.65113841592341e-004
6.76082975391989e+000	4.99999428077912e-001,-2.68183714722900e-004
6.83911647281437e+000	4.99999426402619e-001,-2.71289135603332e-004
6.91830970918944e+000	4.99999424688305e-001,-2.74430515013661e-004
6.99841996002281e+000	4.99999422934058e-001,-2.77608270832264e-004
7.07945784384146e+000	4.99999421138951e-001,-2.80822822650967e-004
7.16143410212910e+000	4.99999419302030e-001,-2.84074597715075e-004
7.24435960074998e+000	4.99999417422321e-001,-2.87364025650773e-004
7.32824533138912e+000	4.99999415498827e-001,-2.90691544073388e-004
7.41310241300926e+000	4.99999413530531e-001,-2.94057593316113e-004
7.49894209332465e+000	4.99999411516387e-001,-2.97462619264031e-004
7.58577575029193e+000	4.99999409455327e-001,-3.00907073635307e-004
7.67361489361828e+000	4.99999407346258e-001,-3.04391412930794e-004
7.76247116628701e+000	4.99999405188064e-001,-3.07916098938646e-004
7.85235634610081e+000	4.99999402979598e-001,-3.11481598684519e-004
7.94328234724291e+000	4.99999400719691e-001,-3.15088385603725e-004
8.03526122185627e+000	4.99999398407143e-001,-3.18736936717302e-004
8.12830516164109e+000	4.99999396040732e-001,-3.22427735692992e-004
8.22242649947081e+000	4.99999393619197e-001,-3.26161272909351e-004
8.31763771102681e+000	4.99999391141260e-001,-3.29938041634814e-004
8.41395141645205e+000	4.99999388605602e-001,-3.33758543422376e-004
8.51138038202387e+000	4.99999386010881e-001,-3.37623284623234e-004
8.60993752184611e+000	4.99999383355721e-001,-3.41532777564139e-004
8.70963589956092e+000	4.99999380638715e-001,-3.45487540282243e-004
8.81048873008025e+000	4.99999377858423e-001,-3.49488096704806e-004
8.91250938133757e+000	4.99999375013367e-001,-3.53534977495849e-004
9.01571137605968e+000	4.99999372102044e-001,-3.57628718905200e-004
9.12010839355921e+000	4.99999369122906e-001,-3.61769863505733e-004
9.22571427154775e+000	4.99999366074376e-001,-3.65958960709392e-004
9.33254300797003e+000	4.99999362954835e-001,-3.70196564730524e-004
9.44060876285936e+000	4.99999359762632e-001,-3.74483238434255e-004
9.54992586021448e+000	4.99999356496072e-001,-3.78819549192090e-004
9.66050878989826e+000	4.99999353153426e-001,-3.83206071843819e-004
9.77237220955824e+000	4.99999349732917e-001,-3.87643388440649e-004
9.88553094656952e+000	4.99999346232736e-001,-3.92132086212838e-004
1.00000000000001e+001	4.99999342651025e-001,-3.96672761089374e-004
1.01157945425991e+001	4.99999338985885e-001,-4.01266014446161e-004
1.02329299228077e+001	4.99999335235373e-001,-4.05912454851150e-004
1.03514216667936e+001	4.99999331397500e-001,-4.10612698367077e-004
1.04712854805091e+001	4.99999327470232e-001,-4.15367368633119e-004
1.05925372517730e+001	4.99999323451487e-001,-4.20177094838047e-004
1.07151930523762e+001	4.99999319339131e-001,-4.25042515245466e-004
1.08392691402122e+001	4.99999315130988e-001,-4.29964274502769e-004
1.09647819614320e+001	4.99999310824824e-001,-4.34943024947868e-004
1.10917481526242e+001	4.99999306418356e-001,-4.39979426695674e-004
1.12201845430198e+001	4.99999301909249e-001,-4.45074147170471e-004
1.13501081567233e+001	4.99999297295111e-001,-4.50227861638492e-004
1.14815362149690e+001	4.99999292573497e-001,-4.55441253186420e-004
1.16144861384036e+001	4.99999287741901e-001,-4.60715012811940e-004
1.17489755493955e+001	4.99999282797763e-001,-4.66049840070454e-004
1.18850222743704e+001	4.99999277738462e-001,-4.71446441280366e-004
1.20226443461743e+001	4.99999272561314e-001,-4.76905532503402e-004
1.21618600064639e+001	4.99999267263576e-001,-4.82427836530797e-004
1.23026877081240e+001	4.99999261842436e-001,-4.88014085754787e-004
1.24451461177140e+001	4.99999256295023e-001,-4.93665020822342e-004
1.25892541179419e+001	4.99999250618393e-001,-4.99381390955363e-004
1.27350308101668e+001	4.99999244809538e-001,-5.05163952939752e-004
1.28824955169315e+001	4.99999238865378e-001,-5.11013473834878e-004
1.30316677845232e+001	4.99999232782760e-001,-5.16930729132288e-004
1.31825673855643e+001	4.99999226558459e-001,-5.22916502913999e-004
1.33352143216334e+001	4.99999220189176e-001,-5.28971588289532e-004
1.34896288259167e+001	4.99999213671534e-001,-5.35096788722336e-004
1.36458313658895e+001	4.99999207002075e-001,-5.41292915083058e-004
1.38038426460291e+001	4.99999200177266e-001,-5.47560789476423e-004
1.39636836105596e+001	4.99999193193487e-001,-5.53901242185959e-004
1.41253754462278e+001	4.99999186047034e-001,-5.60315113671509e-004
1.42889395851113e+001	4.99999178734118e-001,-5.66803254403085e-004
1.44543977074595e+001	4.99999171250864e-001,-5.73366524140886e-004
1.46217717445674e+001	4.99999163593302e-001,-5.80005792770950e-004
1.47910838816823e+001	4.99999155757372e-001,-5.86721940364960e-004
1.49623565609446e+001	4.99999147738920e-001,-5.93515857518944e-004
1.51356124843623e+001	4.99999139533694e-001,-6.00388444194521e-004
1.53108746168206e+001	4.99999131137345e-001,-6.07340611503610e-004
1.54881661891251e+001	4.99999122545419e-001,-6.14373281052030e-004
1.56675107010817e+001	4.99999113753361e-001,-6.21487384950622e-004
1.58489319246114e+001	4.99999104756510e-001,-6.28683866216381e-004
1.60324539069007e+001	4.99999095550096e-001,-6.35963678730909e-004
1.62181009735896e+001	4.99999086129237e-001,-6.43327787422378e-004
1.64058977319957e+001	4.99999076488938e-001,-6.50777168115879e-004
1.65958690743759e+001	4.99999066624087e-001,-6.58312808662014e-004
1.67880401812259e+001	4.99999056529455e-001,-6.65935707457954e-004
1.69824365246177e+001	4.99999046199688e-001,-6.73646875245184e-004
1.71790838715762e+001	4.99999035629311e-001,-6.81447334022187e-004
1.73780082874941e+001	4.99999024812718e-001,-6.89338117457489e-004
1.75792361395872e+001	4.99999013744173e-001,-6.97320272081425e-004
1.77827941003895e+001	4.99999002417810e-001,-7.05394855259842e-004
1.79887091512882e+001	4.99998990827621e-001,-7.13562937610309e-004
1.81970085861002e+001	4.99998978967463e-001,-7.21825601811717e-004
1.84077200146899e+001	4.99998966831046e-001,-7.30183942858813e-004
1.86208713666290e+001	4.99998954411936e-001,-7.38639068762487e-004
1.88364908948983e+001	4.99998941703547e-001,-7.47192100252541e-004
1.90546071796328e+001	4.99998928699142e-001,-7.55844170870726e-004
1.92752491319097e+001	4.99998915391826e-001,-7.64596427565116e-004
1.94984459975808e+001	4.99998901774543e-001,-7.73450030287005e-004
1.97242273611489e+001	4.99998887840071e-001,-7.82406153032861e-004
1.99526231496892e+001	4.99998873581026e-001,-7.91465982056997e-004
2.01836636368160e+001	4.99998858989844e-001,-8.00630719137544e-004
2.04173794466957e+001	4.99998844058790e-001,-8.09901578460477e-004
2.06538015581057e+001	4.99998828779947e-001,-8.19279788945570e-004
2.08929613085408e+001	4.99998813145215e-001,-8.28766593743143e-004
2.11348903983669e+001	4.99998797146303e-001,-8.38363250343330e-004
2.13796208950227e+001	4.99998780774728e-001,-8.48071030798261e-004
2.16271852372706e+001	4.99998764021811e-001,-8.57891221613116e-004
2.18776162394959e+001	4.99998746878668e-001,-8.67825124638336e-004
2.21309470960568e+001	4.99998729336210e-001,-8.77874056298460e-004
2.23872113856838e+001	4.99998711385136e-001,-8.88039348932398e-004
2.26464430759310e+001	4.99998693015928e-001,-8.98322349637709e-004
2.29086765276782e+001	4.99998674218846e-001,-9.08724421781476e-004
2.31739464996852e+001	4.99998654983924e-001,-9.19246943737665e-004
2.34422881531997e+001	4.99998635300963e-001,-9.29891310346653e-004
2.37137370566170e+001	4.99998615159528e-001,-9.40658932433954e-004
2.39883291901954e+001	4.99998594548938e-001,-9.51551237552347e-004
2.42661009508246e+001	4.99998573458267e-001,-9.62569669005319e-004
2.45470891568508e+001	4.99998551876330e-001,-9.73715687481717e-004
2.48313310529562e+001	4.99998529791687e-001,-9.84990770194622e-004
2.51188643150963e+001	4.99998507192626e-001,-9.96396411909836e-004
2.54097270554935e+001	4.99998484067165e-001,-1.00793412422804e-003
2.57039578276891e+001	4.99998460403043e-001,-1.01960543631253e-003
2.60015956316532e+001	4.99998436187714e-001,-1.03141189553602e-003
2.63026799189543e+001	4.99998411408338e-001,-1.04335506627012e-003
2.66072505979886e+001	4.99998386051775e-001,-1.05543653203570e-003
2.69153480392697e+001	4.99998360104583e-001,-1.06765789399184e-003
2.72270130807797e+001	4.99998333553004e-001,-1.08002077195297e-003
2.75422870333822e+001	4.99998306382959e-001,-1.09252680482569e-003
2.78612116862983e+001	4.99998278580043e-001,-1.10517764990996e-003
2.81838293126451e+001	4.99998250129514e-001,-1.11797498439560e-003
2.85101826750397e+001	4.99998221016287e-001,-1.13092050419678e-003
2.88403150312667e+001	4.99998191224927e-001,-1.14401592534252e-003
